[2022-Jun-16 18:57:16] [ info] --------------------------------------------------------------------------------
[2022-Jun-16 18:57:16] [ info] nrfjprog -f nrf52 --log --program /Users/wojtek/Documents/code/nRF52/nRF5_SDK_17.0.2_d674dde/components/softdevice/s140/hex/s140_nrf52_7.2.0_softdevice.hex --sectorerase 
[2022-Jun-16 18:57:16] [ info] nrfjprog version 10.15.1 external
[2022-Jun-16 18:57:16] [ info] --------------------------------------------------------------------------------
[2022-Jun-16 18:57:16] [ info] Load library at /Applications/Nordic Semiconductor/lib/libnrfjprogdll.dylib.
[2022-Jun-16 18:57:16] [ info] Library loaded, loading member functions.
[2022-Jun-16 18:57:16] [ info] Member functions succesfully loaded.
[2022-Jun-16 18:57:16] [debug] [ Client] - open
[2022-Jun-16 18:57:16] [debug] [ Client] - start
[2022-Jun-16 18:57:16] [ info] [ Client] - stdout: Jlinkarm nRF Worker ready. Handling sequence 6b67e117-fb2b-42d9-939a-e1ef720782f5.
[2022-Jun-16 18:57:16] [trace] [ Client] - Command open executed for 5 milliseconds with result 0
[2022-Jun-16 18:57:16] [debug] [ Client] - enum_emu_snr
[2022-Jun-16 18:57:16] [trace] [ Client] - Command enum_emu_con_info executed for 0 milliseconds with result 0
[2022-Jun-16 18:57:16] [debug] [ Client] - connect_to_emu_with_snr
[2022-Jun-16 18:57:16] [debug] [SeggerBackend] - Logger sink registered in Segger backend logger
[2022-Jun-16 18:57:16] [debug] [  JLink] - Logger sink registered in JLink logger
[2022-Jun-16 18:57:16] [debug] [  nRF52] - open
[2022-Jun-16 18:57:16] [debug] [  nRF52] - just_check_family
[2022-Jun-16 18:57:16] [debug] [SeggerBackend] - open_dll
[2022-Jun-16 18:57:16] [debug] [SeggerBackend] - No J-Link DLL path was provided. Attempting to auto detect.
[2022-Jun-16 18:57:16] [ info] [SeggerBackend] - Load library at /Applications/SEGGER/JLink/libjlinkarm.6.60.5.dylib.
[2022-Jun-16 18:57:16] [ info] [SeggerBackend] - Library loaded, loading member functions.
[2022-Jun-16 18:57:16] [ info] [SeggerBackend] - Member functions succesfully loaded.
[2022-Jun-16 18:57:16] [debug] [SeggerBackend] - dll_version
[2022-Jun-16 18:57:16] [ info] [SeggerBackend] - Segger dll version 6.60.e loaded.
[2022-Jun-16 18:57:16] [trace] [ Worker] - Command open executed for 2 milliseconds with result 0
[2022-Jun-16 18:57:16] [debug] [  nRF52] - enum_emu_con_info
[2022-Jun-16 18:57:16] [debug] [SeggerBackend] - is_connected_to_emu
[2022-Jun-16 18:57:16] [debug] [SeggerBackend] - enum_emu_con_info
[2022-Jun-16 18:57:16] [debug] [SeggerBackend] - is_connected_to_emu
[2022-Jun-16 18:57:16] [trace] [ Worker] - Command enum_emu_con_info executed for 0 milliseconds with result 0
[2022-Jun-16 18:57:16] [debug] [  nRF52] - connect_to_emu_with_snr
[2022-Jun-16 18:57:16] [debug] [SeggerBackend] - is_connected_to_emu
[2022-Jun-16 18:57:16] [debug] [SeggerBackend] - connect_to_emu_with_snr
[2022-Jun-16 18:57:16] [debug] [SeggerBackend] - is_connected_to_emu
[2022-Jun-16 18:57:16] [debug] [SeggerBackend] - ---just_enum_emu_snr
[2022-Jun-16 18:57:16] [debug] [SeggerBackend] - ---just_get_num_emus
[2022-Jun-16 18:57:16] [debug] [SeggerBackend] - ---just_connect_to_emu_with_snr
[2022-Jun-16 18:57:16] [debug] [SeggerBackend] - ---just_connect_to_emu_without_snr
[2022-Jun-16 18:57:16] [debug] [SeggerBackend] - Segger logging enabled.
[2022-Jun-16 18:57:16] [trace] [  JLink] - Firmware: J-Link ARM V8 compiled Nov 28 2014 13:44:46
[2022-Jun-16 18:57:16] [trace] [  JLink] - Hardware: V8.00
[2022-Jun-16 18:57:16] [trace] [  JLink] - S/N: 58005171
[2022-Jun-16 18:57:16] [trace] [  JLink] - OEM: SEGGER
[2022-Jun-16 18:57:16] [trace] [  JLink] - Feature(s): RDI, FlashBP, FlashDL, JFlash, GDB
[2022-Jun-16 18:57:16] [trace] [  JLink] - TELNET listener socket opened on port 19021
[2022-Jun-16 18:57:16] [trace] [  JLink] - WEBSRV Starting webserver
[2022-Jun-16 18:57:16] [trace] [  JLink] - WEBSRV Failed to put socket into listener state (port 19080)
[2022-Jun-16 18:57:16] [trace] [  JLink] - WEBSRV Webserver running on local port 19081
[2022-Jun-16 18:57:16] [trace] [  JLink] - XML file found at: /Applications/SEGGER/JLink_V660e/JLinkDevices.xml 
[2022-Jun-16 18:57:16] [trace] [  JLink] - /Applications/SEGGER/JLink_V660e/JLinkDevices.xml evaluated successfully. 
[2022-Jun-16 18:57:16] [trace] [  JLink] - Device "NRF52" selected.
[2022-Jun-16 18:57:16] [trace] [  JLink] - - 46.465ms returns 0x00  
[2022-Jun-16 18:57:16] [trace] [  JLink] - JLINK_OpenEx(...)  
[2022-Jun-16 18:57:17] [trace] [  JLink] - Firmware: J-Link ARM V8 compiled Nov 28 2014 13:44:46
[2022-Jun-16 18:57:17] [trace] [  JLink] - Hardware: V8.00
[2022-Jun-16 18:57:17] [trace] [  JLink] - S/N: 58005171
[2022-Jun-16 18:57:17] [trace] [  JLink] - OEM: SEGGER
[2022-Jun-16 18:57:17] [trace] [  JLink] - Feature(s): RDI, FlashBP, FlashDL, JFlash, GDB
[2022-Jun-16 18:57:17] [trace] [  JLink] - TELNET listener socket opened on port 19021
[2022-Jun-16 18:57:17] [trace] [  JLink] - WEBSRV Starting webserver
[2022-Jun-16 18:57:17] [trace] [  JLink] - WEBSRV Failed to put socket into listener state (port 19080)
[2022-Jun-16 18:57:17] [trace] [  JLink] - WEBSRV Webserver running on local port 19081
[2022-Jun-16 18:57:17] [trace] [  JLink] - - 261.297ms returns "O.K."  
[2022-Jun-16 18:57:17] [trace] [  JLink] - JLINK_Lock()  
[2022-Jun-16 18:57:17] [trace] [  JLink] - JLINK_GetHWStatus(...)  
[2022-Jun-16 18:57:17] [trace] [  JLink] - - 0.239ms returns 0x00  
[2022-Jun-16 18:57:17] [trace] [  JLink] - JLINK_ExecCommand("SetRestartOnClose = 0", ...).   
[2022-Jun-16 18:57:17] [trace] [  JLink] - - 0.004ms returns 0x01  
[2022-Jun-16 18:57:17] [trace] [  JLink] - JLINK_ExecCommand("DisableFlashDL", ...).   
[2022-Jun-16 18:57:17] [trace] [  JLink] - - 0.010ms returns 0x00  
[2022-Jun-16 18:57:17] [trace] [  JLink] - JLINK_ExecCommand("ExcludeFlashCacheRange 0x0-0xFFFFFFFF", ...).   
[2022-Jun-16 18:57:17] [trace] [  JLink] - - 0.009ms returns 0x00  
[2022-Jun-16 18:57:17] [trace] [  JLink] - JLINK_SetHookUnsecureDialog(...)
[2022-Jun-16 18:57:17] [trace] [  JLink] - - 0.009ms returns 0  
[2022-Jun-16 18:57:17] [trace] [  JLink] - JLINK_TIF_Select(JLINKARM_TIF_SWD)  
[2022-Jun-16 18:57:17] [trace] [  JLink] - - 0.998ms returns 0x00  
[2022-Jun-16 18:57:17] [trace] [  JLink] - JLINK_SetSpeed(2000)  
[2022-Jun-16 18:57:17] [trace] [  JLink] - - 0.118ms  
[2022-Jun-16 18:57:17] [debug] [SeggerBackend] - read_debug_port_idr
[2022-Jun-16 18:57:17] [debug] [SeggerBackend] - read_debug_port_register
[2022-Jun-16 18:57:17] [debug] [SeggerBackend] - ---just_read_debug_port_register
[2022-Jun-16 18:57:17] [debug] [SeggerBackend] - coresight_configure
[2022-Jun-16 18:57:17] [trace] [  JLink] - JLINK_CORESIGHT_Configure()  
[2022-Jun-16 18:57:17] [trace] [  JLink] - - 1.682ms returns 0  
[2022-Jun-16 18:57:17] [debug] [SeggerBackend] - ---just_select_debug_port_register
[2022-Jun-16 18:57:17] [debug] [SeggerBackend] - Select AP 255, DP Bank 0, AP Bank 255
[2022-Jun-16 18:57:17] [trace] [  JLink] - JLINK_CORESIGHT_WriteAPDPReg(DP reg 0x02, 0x00000000)  
[2022-Jun-16 18:57:17] [trace] [  JLink] - - 0.548ms returns 0  
[2022-Jun-16 18:57:17] [trace] [  JLink] - JLINK_CORESIGHT_ReadAPDPReg(DP reg 0x00)  
[2022-Jun-16 18:57:17] [trace] [ Client] - Command connect_to_emu_with_snr executed for 314 milliseconds with result 0
[2022-Jun-16 18:57:17] [debug] [ Client] - read_connected_emu_snr
[2022-Jun-16 18:57:17] [trace] [ Client] - Command read_connected_emu_snr executed for 0 milliseconds with result 0
[2022-Jun-16 18:57:17] [debug] [ Client] - read_device_info
[2022-Jun-16 18:57:17] [trace] [  JLink] - Value=0x2BA01477
[2022-Jun-16 18:57:17] [trace] [  JLink] - - 0.565ms returns 0  
[2022-Jun-16 18:57:17] [trace] [  JLink] - JLINK_Unlock()  
[2022-Jun-16 18:57:17] [trace] [ Worker] - Command connect_to_emu_with_snr executed for 314 milliseconds with result 0
[2022-Jun-16 18:57:17] [debug] [  nRF52] - read_connected_emu_snr
[2022-Jun-16 18:57:17] [debug] [SeggerBackend] - is_connected_to_emu
[2022-Jun-16 18:57:17] [trace] [  JLink] - JLINK_IsOpen()  
[2022-Jun-16 18:57:17] [trace] [  JLink] - - 0.004ms returns 0x01  
[2022-Jun-16 18:57:17] [trace] [  JLink] - JLINK_Lock()  
[2022-Jun-16 18:57:17] [debug] [SeggerBackend] - read_connected_emu_snr
[2022-Jun-16 18:57:17] [trace] [  JLink] - JLINK_Unlock()  
[2022-Jun-16 18:57:17] [trace] [ Worker] - Command read_connected_emu_snr executed for 0 milliseconds with result 0
[2022-Jun-16 18:57:17] [debug] [  nRF52] - read_device_info
[2022-Jun-16 18:57:17] [debug] [SeggerBackend] - is_connected_to_emu
[2022-Jun-16 18:57:17] [trace] [  JLink] - JLINK_IsOpen()  
[2022-Jun-16 18:57:17] [trace] [  JLink] - - 0.002ms returns 0x01  
[2022-Jun-16 18:57:17] [trace] [  JLink] - JLINK_Lock()  
[2022-Jun-16 18:57:17] [debug] [  nRF52] - Just_read_device_version
[2022-Jun-16 18:57:17] [debug] [  nRF52] - Just_readback_status
[2022-Jun-16 18:57:17] [debug] [  nRF52] - Just_is_ctrl_ap_available
[2022-Jun-16 18:57:17] [debug] [SeggerBackend] - read_access_port_register
[2022-Jun-16 18:57:17] [debug] [SeggerBackend] - ---just_read_access_port_register
[2022-Jun-16 18:57:17] [debug] [SeggerBackend] - ---just_is_debug_region_powered
[2022-Jun-16 18:57:17] [debug] [SeggerBackend] - ---just_read_debug_port_register
[2022-Jun-16 18:57:17] [debug] [SeggerBackend] - ---just_select_debug_port_register
[2022-Jun-16 18:57:17] [debug] [SeggerBackend] - Select AP 255, DP Bank 0, AP Bank 255
[2022-Jun-16 18:57:17] [trace] [  JLink] - JLINK_CORESIGHT_WriteAPDPReg(DP reg 0x02, 0x00000000)  
[2022-Jun-16 18:57:17] [trace] [  JLink] - - 0.571ms returns 0  
[2022-Jun-16 18:57:17] [trace] [  JLink] - JLINK_CORESIGHT_ReadAPDPReg(DP reg 0x01)  
[2022-Jun-16 18:57:17] [trace] [  JLink] - Value=0x00000040
[2022-Jun-16 18:57:17] [trace] [  JLink] - - 0.620ms returns 0  
[2022-Jun-16 18:57:17] [debug] [SeggerBackend] - power_debug_region
[2022-Jun-16 18:57:17] [debug] [SeggerBackend] - ---just_write_debug_port_register
[2022-Jun-16 18:57:17] [debug] [SeggerBackend] - ---just_select_debug_port_register
[2022-Jun-16 18:57:17] [trace] [  JLink] - JLINK_CORESIGHT_WriteAPDPReg(DP reg 0x01, 0x50000000)  
[2022-Jun-16 18:57:17] [trace] [  JLink] - - 0.571ms returns 0  
[2022-Jun-16 18:57:17] [debug] [SeggerBackend] - ---just_is_debug_region_powered
[2022-Jun-16 18:57:17] [debug] [SeggerBackend] - ---just_read_debug_port_register
[2022-Jun-16 18:57:17] [debug] [SeggerBackend] - ---just_select_debug_port_register
[2022-Jun-16 18:57:17] [trace] [  JLink] - JLINK_CORESIGHT_ReadAPDPReg(DP reg 0x01)  
[2022-Jun-16 18:57:17] [trace] [  JLink] - Value=0xF0000040
[2022-Jun-16 18:57:17] [trace] [  JLink] - - 0.665ms returns 0  
[2022-Jun-16 18:57:17] [debug] [SeggerBackend] - ---just_select_access_port_register
[2022-Jun-16 18:57:17] [debug] [SeggerBackend] - Select AP 1, DP Bank 0, AP Bank 15
[2022-Jun-16 18:57:17] [trace] [  JLink] - JLINK_CORESIGHT_WriteAPDPReg(DP reg 0x02, 0x010000F0)  
[2022-Jun-16 18:57:17] [trace] [  JLink] - - 0.643ms returns 0  
[2022-Jun-16 18:57:17] [trace] [  JLink] - JLINK_CORESIGHT_ReadAPDPReg(AP reg 0x03)  
[2022-Jun-16 18:57:17] [trace] [  JLink] - Value=0x02880000
[2022-Jun-16 18:57:17] [trace] [  JLink] - - 1.456ms returns 0  
[2022-Jun-16 18:57:17] [debug] [SeggerBackend] - read_access_port_register
[2022-Jun-16 18:57:17] [debug] [SeggerBackend] - ---just_read_access_port_register
[2022-Jun-16 18:57:17] [debug] [SeggerBackend] - ---just_select_access_port_register
[2022-Jun-16 18:57:17] [trace] [  JLink] - JLINK_CORESIGHT_ReadAPDPReg(AP reg 0x03)  
[2022-Jun-16 18:57:17] [trace] [  JLink] - Value=0x02880000
[2022-Jun-16 18:57:17] [trace] [  JLink] - - 1.315ms returns 0  
[2022-Jun-16 18:57:17] [debug] [SeggerBackend] - read_access_port_register
[2022-Jun-16 18:57:17] [debug] [SeggerBackend] - ---just_read_access_port_register
[2022-Jun-16 18:57:17] [debug] [SeggerBackend] - ---just_select_access_port_register
[2022-Jun-16 18:57:17] [trace] [  JLink] - JLINK_CORESIGHT_ReadAPDPReg(AP reg 0x03)  
[2022-Jun-16 18:57:17] [trace] [  JLink] - Value=0x02880000
[2022-Jun-16 18:57:17] [trace] [  JLink] - - 1.229ms returns 0  
[2022-Jun-16 18:57:17] [debug] [SeggerBackend] - read_access_port_register
[2022-Jun-16 18:57:17] [debug] [SeggerBackend] - ---just_read_access_port_register
[2022-Jun-16 18:57:17] [debug] [SeggerBackend] - ---just_select_access_port_register
[2022-Jun-16 18:57:17] [trace] [  JLink] - JLINK_CORESIGHT_ReadAPDPReg(AP reg 0x03)  
[2022-Jun-16 18:57:17] [trace] [  JLink] - Value=0x02880000
[2022-Jun-16 18:57:17] [trace] [  JLink] - - 1.225ms returns 0  
[2022-Jun-16 18:57:17] [debug] [SeggerBackend] - read_access_port_register
[2022-Jun-16 18:57:17] [debug] [SeggerBackend] - ---just_read_access_port_register
[2022-Jun-16 18:57:17] [debug] [SeggerBackend] - ---just_select_access_port_register
[2022-Jun-16 18:57:17] [debug] [SeggerBackend] - Select AP 1, DP Bank 0, AP Bank 0
[2022-Jun-16 18:57:17] [trace] [  JLink] - JLINK_CORESIGHT_WriteAPDPReg(DP reg 0x02, 0x01000000)  
[2022-Jun-16 18:57:17] [trace] [  JLink] - - 0.606ms returns 0  
[2022-Jun-16 18:57:17] [trace] [  JLink] - JLINK_CORESIGHT_ReadAPDPReg(AP reg 0x03)  
[2022-Jun-16 18:57:17] [trace] [  JLink] - Value=0x00000001
[2022-Jun-16 18:57:17] [trace] [  JLink] - - 1.176ms returns 0  
[2022-Jun-16 18:57:17] [debug] [SeggerBackend] - read_access_port_register
[2022-Jun-16 18:57:17] [debug] [SeggerBackend] - ---just_read_access_port_register
[2022-Jun-16 18:57:17] [debug] [SeggerBackend] - ---just_select_access_port_register
[2022-Jun-16 18:57:17] [trace] [  JLink] - JLINK_CORESIGHT_ReadAPDPReg(AP reg 0x03)  
[2022-Jun-16 18:57:17] [trace] [  JLink] - Value=0x00000001
[2022-Jun-16 18:57:17] [trace] [  JLink] - - 1.327ms returns 0  
[2022-Jun-16 18:57:17] [debug] [SeggerBackend] - read_access_port_register
[2022-Jun-16 18:57:17] [debug] [SeggerBackend] - ---just_read_access_port_register
[2022-Jun-16 18:57:17] [debug] [SeggerBackend] - ---just_select_access_port_register
[2022-Jun-16 18:57:17] [trace] [  JLink] - JLINK_CORESIGHT_ReadAPDPReg(AP reg 0x03)  
[2022-Jun-16 18:57:17] [trace] [  JLink] - Value=0x00000001
[2022-Jun-16 18:57:17] [trace] [  JLink] - - 1.306ms returns 0  
[2022-Jun-16 18:57:17] [debug] [SeggerBackend] - read_access_port_register
[2022-Jun-16 18:57:17] [debug] [SeggerBackend] - ---just_read_access_port_register
[2022-Jun-16 18:57:17] [debug] [SeggerBackend] - ---just_select_access_port_register
[2022-Jun-16 18:57:17] [trace] [  JLink] - JLINK_CORESIGHT_ReadAPDPReg(AP reg 0x03)  
[2022-Jun-16 18:57:17] [trace] [  JLink] - Value=0x00000001
[2022-Jun-16 18:57:17] [trace] [  JLink] - - 1.296ms returns 0  
[2022-Jun-16 18:57:17] [ info] [  nRF52] - Protection status read as NONE
[2022-Jun-16 18:57:17] [debug] [SeggerBackend] - read_u32
[2022-Jun-16 18:57:17] [debug] [SeggerBackend] - ---just_connect_to_device
[2022-Jun-16 18:57:17] [debug] [SeggerBackend] - is_connected_to_device
[2022-Jun-16 18:57:17] [trace] [  JLink] - JLINK_IsConnected()  
[2022-Jun-16 18:57:17] [trace] [  JLink] - - 0.004ms returns FALSE  
[2022-Jun-16 18:57:17] [debug] [SeggerBackend] - ---set_coresight_ahb_ap_index
[2022-Jun-16 18:57:17] [trace] [  JLink] - JLINK_ExecCommand("CORESIGHT_SetIndexAHBAPToUse = 0", ...).   
[2022-Jun-16 18:57:17] [trace] [  JLink] - - 0.004ms returns 0x00  
[2022-Jun-16 18:57:17] [trace] [  JLink] - JLINK_ExecCommand("device = nRF52", ...).   
[2022-Jun-16 18:57:17] [trace] [  JLink] - Device "NRF52" selected.
[2022-Jun-16 18:57:17] [trace] [  JLink] - Device "NRF52" selected.
[2022-Jun-16 18:57:17] [trace] [  JLink] - - 0.553ms returns 0x00  
[2022-Jun-16 18:57:17] [debug] [SeggerBackend] - ---just_write_debug_port_register
[2022-Jun-16 18:57:17] [debug] [SeggerBackend] - ---just_select_debug_port_register
[2022-Jun-16 18:57:17] [trace] [  JLink] - JLINK_CORESIGHT_WriteAPDPReg(DP reg 0x02, 0x00000000)  
[2022-Jun-16 18:57:17] [trace] [  JLink] - - 0.657ms returns 0  
[2022-Jun-16 18:57:17] [trace] [  JLink] - JLINK_Connect()  
[2022-Jun-16 18:57:17] [trace] [  JLink] - InitTarget() start
[2022-Jun-16 18:57:17] [trace] [  JLink] - InitTarget() start
[2022-Jun-16 18:57:17] [trace] [  JLink] -  J-Link Script File: Executing InitTarget() 
[2022-Jun-16 18:57:17] [trace] [  JLink] - InitTarget() end
[2022-Jun-16 18:57:17] [trace] [  JLink] - InitTarget() end
[2022-Jun-16 18:57:17] [trace] [  JLink] - Found SW-DP with ID 0x2BA01477
[2022-Jun-16 18:57:17] [trace] [  JLink] - Found SW-DP with ID 0x2BA01477
[2022-Jun-16 18:57:17] [trace] [  JLink] - AP map detection skipped. Manually configured AP map found.
[2022-Jun-16 18:57:17] [trace] [  JLink] - AP map detection skipped. Manually configured AP map found.
[2022-Jun-16 18:57:17] [trace] [  JLink] - AP[0]: AHB-AP (IDR: Not set)
[2022-Jun-16 18:57:17] [trace] [  JLink] - AP[0]: AHB-AP (IDR: Not set)
[2022-Jun-16 18:57:17] [trace] [  JLink] - AP[0]: Core found
[2022-Jun-16 18:57:17] [trace] [  JLink] - AP[0]: Core found
[2022-Jun-16 18:57:17] [trace] [  JLink] - AP[0]: AHB-AP ROM base: 0xE00FF000
[2022-Jun-16 18:57:17] [trace] [  JLink] - AP[0]: AHB-AP ROM base: 0xE00FF000
[2022-Jun-16 18:57:17] [trace] [  JLink] - CPUID register: 0x410FC241. Implementer code: 0x41 (ARM)
[2022-Jun-16 18:57:17] [trace] [  JLink] - CPUID register: 0x410FC241. Implementer code: 0x41 (ARM)
[2022-Jun-16 18:57:17] [trace] [  JLink] - Found Cortex-M4 r0p1, Little endian.
[2022-Jun-16 18:57:17] [trace] [  JLink] - Found Cortex-M4 r0p1, Little endian.
[2022-Jun-16 18:57:17] [trace] [  JLink] -  -- Max. mem block: 0x00001FE8
[2022-Jun-16 18:57:17] [trace] [  JLink] -  -- CPU_ReadMem(4 bytes @ 0xE000EDF0)
[2022-Jun-16 18:57:17] [trace] [  JLink] -  -- CPU_ReadMem(4 bytes @ 0xE0002000)
[2022-Jun-16 18:57:17] [trace] [  JLink] - FPUnit: 6 code (BP) slots and 2 literal slots
[2022-Jun-16 18:57:17] [trace] [  JLink] - FPUnit: 6 code (BP) slots and 2 literal slots
[2022-Jun-16 18:57:17] [trace] [  JLink] -  -- CPU_ReadMem(4 bytes @ 0xE000EDFC)
[2022-Jun-16 18:57:17] [trace] [  JLink] -  -- CPU_WriteMem(4 bytes @ 0xE000EDFC)
[2022-Jun-16 18:57:17] [trace] [  JLink] -  -- CPU_ReadMem(4 bytes @ 0xE0001000)
[2022-Jun-16 18:57:17] [trace] [  JLink] -  -- CPU_WriteMem(4 bytes @ 0xE0001000)
[2022-Jun-16 18:57:17] [trace] [  JLink] -  -- CPU_ReadMem(4 bytes @ 0xE000ED88)
[2022-Jun-16 18:57:17] [trace] [  JLink] -  -- CPU_WriteMem(4 bytes @ 0xE000ED88)
[2022-Jun-16 18:57:17] [trace] [  JLink] -  -- CPU_ReadMem(4 bytes @ 0xE000ED88)
[2022-Jun-16 18:57:17] [trace] [  JLink] -  -- CPU_WriteMem(4 bytes @ 0xE000ED88)
[2022-Jun-16 18:57:17] [trace] [  JLink] - CoreSight components:
[2022-Jun-16 18:57:17] [trace] [  JLink] - CoreSight components:
[2022-Jun-16 18:57:17] [trace] [  JLink] - ROMTbl[0] @ E00FF000
[2022-Jun-16 18:57:17] [trace] [  JLink] - ROMTbl[0] @ E00FF000
[2022-Jun-16 18:57:17] [trace] [  JLink] -  -- CPU_ReadMem(16 bytes @ 0xE00FF000)
[2022-Jun-16 18:57:17] [trace] [  JLink] -  -- CPU_ReadMem(16 bytes @ 0xE000EFF0)
[2022-Jun-16 18:57:17] [trace] [  JLink] -  -- CPU_ReadMem(16 bytes @ 0xE000EFE0)
[2022-Jun-16 18:57:17] [trace] [  JLink] - ROMTbl[0][0]: E000E000, CID: B105E00D, PID: 000BB00C SCS-M7
[2022-Jun-16 18:57:17] [trace] [  JLink] - ROMTbl[0][0]: E000E000, CID: B105E00D, PID: 000BB00C SCS-M7
[2022-Jun-16 18:57:17] [trace] [  JLink] -  -- CPU_ReadMem(16 bytes @ 0xE0001FF0)
[2022-Jun-16 18:57:17] [trace] [  JLink] -  -- CPU_ReadMem(16 bytes @ 0xE0001FE0)
[2022-Jun-16 18:57:17] [trace] [  JLink] - ROMTbl[0][1]: E0001000, CID: B105E00D, PID: 003BB002 DWT
[2022-Jun-16 18:57:17] [trace] [  JLink] - ROMTbl[0][1]: E0001000, CID: B105E00D, PID: 003BB002 DWT
[2022-Jun-16 18:57:17] [trace] [  JLink] -  -- CPU_ReadMem(16 bytes @ 0xE0002FF0)
[2022-Jun-16 18:57:17] [trace] [  JLink] -  -- CPU_ReadMem(16 bytes @ 0xE0002FE0)
[2022-Jun-16 18:57:17] [trace] [  JLink] - ROMTbl[0][2]: E0002000, CID: B105E00D, PID: 002BB003 FPB
[2022-Jun-16 18:57:17] [trace] [  JLink] - ROMTbl[0][2]: E0002000, CID: B105E00D, PID: 002BB003 FPB
[2022-Jun-16 18:57:17] [trace] [  JLink] -  -- CPU_ReadMem(16 bytes @ 0xE0000FF0)
[2022-Jun-16 18:57:17] [trace] [ Client] - Command read_device_info executed for 159 milliseconds with result 0
[2022-Jun-16 18:57:17] [debug] [ Client] - read_memory_descriptors
[2022-Jun-16 18:57:17] [trace] [  JLink] -  -- CPU_ReadMem(16 bytes @ 0xE0000FE0)
[2022-Jun-16 18:57:17] [trace] [  JLink] - ROMTbl[0][3]: E0000000, CID: B105E00D, PID: 003BB001 ITM
[2022-Jun-16 18:57:17] [trace] [  JLink] - ROMTbl[0][3]: E0000000, CID: B105E00D, PID: 003BB001 ITM
[2022-Jun-16 18:57:17] [trace] [  JLink] -  -- CPU_ReadMem(16 bytes @ 0xE00FF010)
[2022-Jun-16 18:57:17] [trace] [  JLink] -  -- CPU_ReadMem(16 bytes @ 0xE0040FF0)
[2022-Jun-16 18:57:17] [trace] [  JLink] -  -- CPU_ReadMem(16 bytes @ 0xE0040FE0)
[2022-Jun-16 18:57:17] [trace] [  JLink] - ROMTbl[0][4]: E0040000, CID: B105900D, PID: 000BB9A1 TPIU
[2022-Jun-16 18:57:17] [trace] [  JLink] - ROMTbl[0][4]: E0040000, CID: B105900D, PID: 000BB9A1 TPIU
[2022-Jun-16 18:57:17] [trace] [  JLink] -  -- CPU_ReadMem(16 bytes @ 0xE0041FF0)
[2022-Jun-16 18:57:17] [trace] [  JLink] -  -- CPU_ReadMem(16 bytes @ 0xE0041FE0)
[2022-Jun-16 18:57:17] [trace] [  JLink] - ROMTbl[0][5]: E0041000, CID: B105900D, PID: 000BB925 ETM
[2022-Jun-16 18:57:17] [trace] [  JLink] - ROMTbl[0][5]: E0041000, CID: B105900D, PID: 000BB925 ETM
[2022-Jun-16 18:57:17] [trace] [  JLink] - - 140.174ms returns 0x00  
[2022-Jun-16 18:57:17] [trace] [  JLink] - JLINK_CORE_GetFound()  
[2022-Jun-16 18:57:17] [trace] [  JLink] - - 0.006ms returns 0xE0000FF  
[2022-Jun-16 18:57:17] [debug] [SeggerBackend] - ---just_read_u32
[2022-Jun-16 18:57:17] [debug] [SeggerBackend] - ---just_invalidate_cache
[2022-Jun-16 18:57:17] [trace] [  JLink] - JLINK_ExecCommand("InvalidateCache", ...).   
[2022-Jun-16 18:57:17] [trace] [  JLink] - - 0.017ms returns 0x00  
[2022-Jun-16 18:57:17] [trace] [  JLink] - JLINK_ReadMemU32(0x10000130, 0x0001 Items, ...)
[2022-Jun-16 18:57:17] [trace] [  JLink] -  -- CPU_ReadMem(4 bytes @ 0x10000130)
[2022-Jun-16 18:57:17] [trace] [  JLink] - Data:  08 00 00 00
[2022-Jun-16 18:57:17] [trace] [  JLink] - - 0.564ms returns 1  
[2022-Jun-16 18:57:17] [debug] [SeggerBackend] - read_u32
[2022-Jun-16 18:57:17] [debug] [SeggerBackend] - ---just_connect_to_device
[2022-Jun-16 18:57:17] [debug] [SeggerBackend] - is_connected_to_device
[2022-Jun-16 18:57:17] [debug] [SeggerBackend] - ---just_read_u32
[2022-Jun-16 18:57:17] [debug] [SeggerBackend] - ---just_invalidate_cache
[2022-Jun-16 18:57:17] [trace] [  JLink] - JLINK_ExecCommand("InvalidateCache", ...).   
[2022-Jun-16 18:57:17] [trace] [  JLink] - - 0.008ms returns 0x00  
[2022-Jun-16 18:57:17] [trace] [  JLink] - JLINK_ReadMemU32(0x10000134, 0x0001 Items, ...)
[2022-Jun-16 18:57:17] [trace] [  JLink] -  -- CPU_ReadMem(4 bytes @ 0x10000134)
[2022-Jun-16 18:57:17] [trace] [  JLink] - Data:  03 00 00 00
[2022-Jun-16 18:57:17] [trace] [  JLink] - - 0.562ms returns 1  
[2022-Jun-16 18:57:17] [debug] [  nRF52] - Just_decode_device_version
[2022-Jun-16 18:57:17] [debug] [SeggerBackend] - read_u32
[2022-Jun-16 18:57:17] [debug] [SeggerBackend] - ---just_connect_to_device
[2022-Jun-16 18:57:17] [debug] [SeggerBackend] - is_connected_to_device
[2022-Jun-16 18:57:17] [debug] [SeggerBackend] - ---just_read_u32
[2022-Jun-16 18:57:17] [debug] [SeggerBackend] - ---just_invalidate_cache
[2022-Jun-16 18:57:17] [trace] [  JLink] - JLINK_ExecCommand("InvalidateCache", ...).   
[2022-Jun-16 18:57:17] [trace] [  JLink] - - 0.008ms returns 0x00  
[2022-Jun-16 18:57:17] [trace] [  JLink] - JLINK_ReadMemU32(0x10000110, 0x0001 Items, ...)
[2022-Jun-16 18:57:17] [trace] [  JLink] -  -- CPU_ReadMem(4 bytes @ 0x10000110)
[2022-Jun-16 18:57:17] [trace] [  JLink] - Data:  00 04 00 00
[2022-Jun-16 18:57:17] [trace] [  JLink] - - 0.551ms returns 1  
[2022-Jun-16 18:57:17] [trace] [  JLink] - JLINK_Unlock()  
[2022-Jun-16 18:57:17] [trace] [ Worker] - Command read_device_info executed for 159 milliseconds with result 0
[2022-Jun-16 18:57:17] [debug] [  nRF52] - read_memory_descriptors
[2022-Jun-16 18:57:17] [debug] [SeggerBackend] - is_connected_to_emu
[2022-Jun-16 18:57:17] [trace] [  JLink] - JLINK_IsOpen()  
[2022-Jun-16 18:57:17] [trace] [  JLink] - - 0.005ms returns 0x01  
[2022-Jun-16 18:57:17] [trace] [  JLink] - JLINK_Lock()  
[2022-Jun-16 18:57:17] [debug] [  nRF52] - Just_read_memory_descriptors
[2022-Jun-16 18:57:17] [debug] [  nRF52] - Just_readback_status
[2022-Jun-16 18:57:17] [debug] [  nRF52] - Just_is_ctrl_ap_available
[2022-Jun-16 18:57:17] [debug] [SeggerBackend] - read_access_port_register
[2022-Jun-16 18:57:17] [debug] [SeggerBackend] - ---just_read_access_port_register
[2022-Jun-16 18:57:17] [debug] [SeggerBackend] - ---just_is_debug_region_powered
[2022-Jun-16 18:57:17] [debug] [SeggerBackend] - ---just_read_debug_port_register
[2022-Jun-16 18:57:17] [debug] [SeggerBackend] - ---just_select_debug_port_register
[2022-Jun-16 18:57:17] [debug] [SeggerBackend] - Select AP 255, DP Bank 0, AP Bank 255
[2022-Jun-16 18:57:17] [trace] [  JLink] - JLINK_CORESIGHT_WriteAPDPReg(DP reg 0x02, 0x00000000)  
[2022-Jun-16 18:57:17] [trace] [  JLink] - - 1.947ms returns 0  
[2022-Jun-16 18:57:17] [trace] [  JLink] - JLINK_CORESIGHT_ReadAPDPReg(DP reg 0x01)  
[2022-Jun-16 18:57:17] [trace] [  JLink] - Value=0xF0000040
[2022-Jun-16 18:57:17] [trace] [  JLink] - - 0.366ms returns 0  
[2022-Jun-16 18:57:17] [debug] [SeggerBackend] - ---just_select_access_port_register
[2022-Jun-16 18:57:17] [debug] [SeggerBackend] - Select AP 1, DP Bank 0, AP Bank 15
[2022-Jun-16 18:57:17] [trace] [  JLink] - JLINK_CORESIGHT_WriteAPDPReg(DP reg 0x02, 0x010000F0)  
[2022-Jun-16 18:57:17] [trace] [  JLink] - - 0.592ms returns 0  
[2022-Jun-16 18:57:17] [trace] [  JLink] - JLINK_CORESIGHT_ReadAPDPReg(AP reg 0x03)  
[2022-Jun-16 18:57:17] [trace] [  JLink] - Value=0x02880000
[2022-Jun-16 18:57:17] [trace] [  JLink] - - 0.737ms returns 0  
[2022-Jun-16 18:57:17] [debug] [SeggerBackend] - read_access_port_register
[2022-Jun-16 18:57:17] [debug] [SeggerBackend] - ---just_read_access_port_register
[2022-Jun-16 18:57:17] [debug] [SeggerBackend] - ---just_select_access_port_register
[2022-Jun-16 18:57:17] [trace] [  JLink] - JLINK_CORESIGHT_ReadAPDPReg(AP reg 0x03)  
[2022-Jun-16 18:57:17] [trace] [  JLink] - Value=0x02880000
[2022-Jun-16 18:57:17] [trace] [  JLink] - - 0.737ms returns 0  
[2022-Jun-16 18:57:17] [debug] [SeggerBackend] - read_access_port_register
[2022-Jun-16 18:57:17] [debug] [SeggerBackend] - ---just_read_access_port_register
[2022-Jun-16 18:57:17] [debug] [SeggerBackend] - ---just_select_access_port_register
[2022-Jun-16 18:57:17] [trace] [  JLink] - JLINK_CORESIGHT_ReadAPDPReg(AP reg 0x03)  
[2022-Jun-16 18:57:17] [trace] [  JLink] - Value=0x02880000
[2022-Jun-16 18:57:17] [trace] [  JLink] - - 0.656ms returns 0  
[2022-Jun-16 18:57:17] [debug] [SeggerBackend] - read_access_port_register
[2022-Jun-16 18:57:17] [debug] [SeggerBackend] - ---just_read_access_port_register
[2022-Jun-16 18:57:17] [debug] [SeggerBackend] - ---just_select_access_port_register
[2022-Jun-16 18:57:17] [trace] [  JLink] - JLINK_CORESIGHT_ReadAPDPReg(AP reg 0x03)  
[2022-Jun-16 18:57:17] [trace] [  JLink] - Value=0x02880000
[2022-Jun-16 18:57:17] [trace] [  JLink] - - 0.651ms returns 0  
[2022-Jun-16 18:57:17] [debug] [SeggerBackend] - read_access_port_register
[2022-Jun-16 18:57:17] [debug] [SeggerBackend] - ---just_read_access_port_register
[2022-Jun-16 18:57:17] [debug] [SeggerBackend] - ---just_select_access_port_register
[2022-Jun-16 18:57:17] [debug] [SeggerBackend] - Select AP 1, DP Bank 0, AP Bank 0
[2022-Jun-16 18:57:17] [trace] [  JLink] - JLINK_CORESIGHT_WriteAPDPReg(DP reg 0x02, 0x01000000)  
[2022-Jun-16 18:57:17] [trace] [  JLink] - - 0.661ms returns 0  
[2022-Jun-16 18:57:17] [trace] [  JLink] - JLINK_CORESIGHT_ReadAPDPReg(AP reg 0x03)  
[2022-Jun-16 18:57:17] [trace] [  JLink] - Value=0x00000001
[2022-Jun-16 18:57:17] [trace] [  JLink] - - 0.675ms returns 0  
[2022-Jun-16 18:57:17] [debug] [SeggerBackend] - read_access_port_register
[2022-Jun-16 18:57:17] [debug] [SeggerBackend] - ---just_read_access_port_register
[2022-Jun-16 18:57:17] [debug] [SeggerBackend] - ---just_select_access_port_register
[2022-Jun-16 18:57:17] [trace] [  JLink] - JLINK_CORESIGHT_ReadAPDPReg(AP reg 0x03)  
[2022-Jun-16 18:57:17] [trace] [  JLink] - Value=0x00000001
[2022-Jun-16 18:57:17] [trace] [  JLink] - - 0.623ms returns 0  
[2022-Jun-16 18:57:17] [debug] [SeggerBackend] - read_access_port_register
[2022-Jun-16 18:57:17] [debug] [SeggerBackend] - ---just_read_access_port_register
[2022-Jun-16 18:57:17] [debug] [SeggerBackend] - ---just_select_access_port_register
[2022-Jun-16 18:57:17] [trace] [  JLink] - JLINK_CORESIGHT_ReadAPDPReg(AP reg 0x03)  
[2022-Jun-16 18:57:17] [trace] [  JLink] - Value=0x00000001
[2022-Jun-16 18:57:17] [trace] [  JLink] - - 0.688ms returns 0  
[2022-Jun-16 18:57:17] [debug] [SeggerBackend] - read_access_port_register
[2022-Jun-16 18:57:17] [debug] [SeggerBackend] - ---just_read_access_port_register
[2022-Jun-16 18:57:17] [debug] [SeggerBackend] - ---just_select_access_port_register
[2022-Jun-16 18:57:17] [trace] [  JLink] - JLINK_CORESIGHT_ReadAPDPReg(AP reg 0x03)  
[2022-Jun-16 18:57:17] [trace] [  JLink] - Value=0x00000001
[2022-Jun-16 18:57:17] [trace] [  JLink] - - 0.681ms returns 0  
[2022-Jun-16 18:57:17] [ info] [  nRF52] - Protection status read as NONE
[2022-Jun-16 18:57:17] [debug] [  nRF52] - update_device_memory_list
[2022-Jun-16 18:57:17] [debug] [  nRF52] - Just_read_device_version
[2022-Jun-16 18:57:17] [debug] [  nRF52] - Just_readback_status
[2022-Jun-16 18:57:17] [debug] [  nRF52] - Just_is_ctrl_ap_available
[2022-Jun-16 18:57:17] [debug] [SeggerBackend] - read_access_port_register
[2022-Jun-16 18:57:17] [debug] [SeggerBackend] - ---just_read_access_port_register
[2022-Jun-16 18:57:17] [debug] [SeggerBackend] - ---just_select_access_port_register
[2022-Jun-16 18:57:17] [debug] [SeggerBackend] - Select AP 1, DP Bank 0, AP Bank 15
[2022-Jun-16 18:57:17] [trace] [  JLink] - JLINK_CORESIGHT_WriteAPDPReg(DP reg 0x02, 0x010000F0)  
[2022-Jun-16 18:57:17] [trace] [  JLink] - - 0.574ms returns 0  
[2022-Jun-16 18:57:17] [trace] [  JLink] - JLINK_CORESIGHT_ReadAPDPReg(AP reg 0x03)  
[2022-Jun-16 18:57:17] [trace] [  JLink] - Value=0x02880000
[2022-Jun-16 18:57:17] [trace] [  JLink] - - 0.714ms returns 0  
[2022-Jun-16 18:57:17] [debug] [SeggerBackend] - read_access_port_register
[2022-Jun-16 18:57:17] [debug] [SeggerBackend] - ---just_read_access_port_register
[2022-Jun-16 18:57:17] [debug] [SeggerBackend] - ---just_select_access_port_register
[2022-Jun-16 18:57:17] [trace] [  JLink] - JLINK_CORESIGHT_ReadAPDPReg(AP reg 0x03)  
[2022-Jun-16 18:57:17] [trace] [ Client] - Command read_memory_descriptors executed for 18 milliseconds with result 0
[2022-Jun-16 18:57:17] [debug] [ Client] - read_memory_descriptors
[2022-Jun-16 18:57:17] [trace] [  JLink] - Value=0x02880000
[2022-Jun-16 18:57:17] [trace] [  JLink] - - 0.702ms returns 0  
[2022-Jun-16 18:57:17] [debug] [SeggerBackend] - read_access_port_register
[2022-Jun-16 18:57:17] [debug] [SeggerBackend] - ---just_read_access_port_register
[2022-Jun-16 18:57:17] [debug] [SeggerBackend] - ---just_select_access_port_register
[2022-Jun-16 18:57:17] [trace] [  JLink] - JLINK_CORESIGHT_ReadAPDPReg(AP reg 0x03)  
[2022-Jun-16 18:57:17] [trace] [  JLink] - Value=0x02880000
[2022-Jun-16 18:57:17] [trace] [  JLink] - - 0.705ms returns 0  
[2022-Jun-16 18:57:17] [debug] [SeggerBackend] - read_access_port_register
[2022-Jun-16 18:57:17] [debug] [SeggerBackend] - ---just_read_access_port_register
[2022-Jun-16 18:57:17] [debug] [SeggerBackend] - ---just_select_access_port_register
[2022-Jun-16 18:57:17] [trace] [  JLink] - JLINK_CORESIGHT_ReadAPDPReg(AP reg 0x03)  
[2022-Jun-16 18:57:17] [trace] [  JLink] - Value=0x02880000
[2022-Jun-16 18:57:17] [trace] [  JLink] - - 0.715ms returns 0  
[2022-Jun-16 18:57:17] [debug] [SeggerBackend] - read_access_port_register
[2022-Jun-16 18:57:17] [debug] [SeggerBackend] - ---just_read_access_port_register
[2022-Jun-16 18:57:17] [debug] [SeggerBackend] - ---just_select_access_port_register
[2022-Jun-16 18:57:17] [debug] [SeggerBackend] - Select AP 1, DP Bank 0, AP Bank 0
[2022-Jun-16 18:57:17] [trace] [  JLink] - JLINK_CORESIGHT_WriteAPDPReg(DP reg 0x02, 0x01000000)  
[2022-Jun-16 18:57:17] [trace] [  JLink] - - 0.716ms returns 0  
[2022-Jun-16 18:57:17] [trace] [  JLink] - JLINK_CORESIGHT_ReadAPDPReg(AP reg 0x03)  
[2022-Jun-16 18:57:17] [trace] [  JLink] - Value=0x00000001
[2022-Jun-16 18:57:17] [trace] [  JLink] - - 0.700ms returns 0  
[2022-Jun-16 18:57:17] [debug] [SeggerBackend] - read_access_port_register
[2022-Jun-16 18:57:17] [debug] [SeggerBackend] - ---just_read_access_port_register
[2022-Jun-16 18:57:17] [debug] [SeggerBackend] - ---just_select_access_port_register
[2022-Jun-16 18:57:17] [trace] [  JLink] - JLINK_CORESIGHT_ReadAPDPReg(AP reg 0x03)  
[2022-Jun-16 18:57:17] [trace] [  JLink] - Value=0x00000001
[2022-Jun-16 18:57:17] [trace] [  JLink] - - 0.662ms returns 0  
[2022-Jun-16 18:57:17] [debug] [SeggerBackend] - read_access_port_register
[2022-Jun-16 18:57:17] [debug] [SeggerBackend] - ---just_read_access_port_register
[2022-Jun-16 18:57:17] [debug] [SeggerBackend] - ---just_select_access_port_register
[2022-Jun-16 18:57:17] [trace] [  JLink] - JLINK_CORESIGHT_ReadAPDPReg(AP reg 0x03)  
[2022-Jun-16 18:57:17] [trace] [  JLink] - Value=0x00000001
[2022-Jun-16 18:57:17] [trace] [  JLink] - - 0.687ms returns 0  
[2022-Jun-16 18:57:17] [debug] [SeggerBackend] - read_access_port_register
[2022-Jun-16 18:57:17] [debug] [SeggerBackend] - ---just_read_access_port_register
[2022-Jun-16 18:57:17] [debug] [SeggerBackend] - ---just_select_access_port_register
[2022-Jun-16 18:57:17] [trace] [  JLink] - JLINK_CORESIGHT_ReadAPDPReg(AP reg 0x03)  
[2022-Jun-16 18:57:17] [trace] [  JLink] - Value=0x00000001
[2022-Jun-16 18:57:17] [trace] [  JLink] - - 0.757ms returns 0  
[2022-Jun-16 18:57:17] [ info] [  nRF52] - Protection status read as NONE
[2022-Jun-16 18:57:17] [debug] [SeggerBackend] - read_u32
[2022-Jun-16 18:57:17] [debug] [SeggerBackend] - ---just_connect_to_device
[2022-Jun-16 18:57:17] [debug] [SeggerBackend] - is_connected_to_device
[2022-Jun-16 18:57:17] [trace] [  JLink] - JLINK_IsConnected()  
[2022-Jun-16 18:57:17] [trace] [  JLink] - - 0.005ms returns TRUE  
[2022-Jun-16 18:57:17] [debug] [SeggerBackend] - ---just_read_u32
[2022-Jun-16 18:57:17] [debug] [SeggerBackend] - ---just_invalidate_cache
[2022-Jun-16 18:57:17] [trace] [  JLink] - JLINK_ExecCommand("InvalidateCache", ...).   
[2022-Jun-16 18:57:17] [trace] [  JLink] - - 0.009ms returns 0x00  
[2022-Jun-16 18:57:17] [debug] [SeggerBackend] - ---just_write_debug_port_register
[2022-Jun-16 18:57:17] [debug] [SeggerBackend] - ---just_select_debug_port_register
[2022-Jun-16 18:57:17] [trace] [  JLink] - JLINK_CORESIGHT_WriteAPDPReg(DP reg 0x02, 0x00000000)  
[2022-Jun-16 18:57:17] [trace] [  JLink] - - 0.612ms returns 0  
[2022-Jun-16 18:57:17] [trace] [  JLink] - JLINK_ReadMemU32(0x10000130, 0x0001 Items, ...)
[2022-Jun-16 18:57:17] [trace] [  JLink] -  -- CPU_ReadMem(4 bytes @ 0x10000130)
[2022-Jun-16 18:57:17] [trace] [  JLink] - Data:  08 00 00 00
[2022-Jun-16 18:57:17] [trace] [  JLink] - - 0.533ms returns 1  
[2022-Jun-16 18:57:17] [debug] [SeggerBackend] - read_u32
[2022-Jun-16 18:57:17] [debug] [SeggerBackend] - ---just_connect_to_device
[2022-Jun-16 18:57:17] [debug] [SeggerBackend] - is_connected_to_device
[2022-Jun-16 18:57:17] [debug] [SeggerBackend] - ---just_read_u32
[2022-Jun-16 18:57:17] [debug] [SeggerBackend] - ---just_invalidate_cache
[2022-Jun-16 18:57:17] [trace] [  JLink] - JLINK_ExecCommand("InvalidateCache", ...).   
[2022-Jun-16 18:57:17] [trace] [  JLink] - - 0.009ms returns 0x00  
[2022-Jun-16 18:57:17] [trace] [  JLink] - JLINK_ReadMemU32(0x10000134, 0x0001 Items, ...)
[2022-Jun-16 18:57:17] [trace] [  JLink] -  -- CPU_ReadMem(4 bytes @ 0x10000134)
[2022-Jun-16 18:57:17] [trace] [  JLink] - Data:  03 00 00 00
[2022-Jun-16 18:57:17] [trace] [  JLink] - - 0.509ms returns 1  
[2022-Jun-16 18:57:17] [debug] [  nRF52] - Just_decode_device_version
[2022-Jun-16 18:57:17] [debug] [SeggerBackend] - read_u32
[2022-Jun-16 18:57:17] [debug] [SeggerBackend] - ---just_connect_to_device
[2022-Jun-16 18:57:17] [debug] [SeggerBackend] - is_connected_to_device
[2022-Jun-16 18:57:17] [debug] [SeggerBackend] - ---just_read_u32
[2022-Jun-16 18:57:17] [debug] [SeggerBackend] - ---just_invalidate_cache
[2022-Jun-16 18:57:17] [trace] [  JLink] - JLINK_ExecCommand("InvalidateCache", ...).   
[2022-Jun-16 18:57:17] [trace] [  JLink] - - 0.008ms returns 0x00  
[2022-Jun-16 18:57:17] [trace] [  JLink] - JLINK_ReadMemU32(0x10000110, 0x0001 Items, ...)
[2022-Jun-16 18:57:17] [trace] [  JLink] -  -- CPU_ReadMem(4 bytes @ 0x10000110)
[2022-Jun-16 18:57:17] [trace] [  JLink] - Data:  00 04 00 00
[2022-Jun-16 18:57:17] [trace] [  JLink] - - 0.520ms returns 1  
[2022-Jun-16 18:57:17] [debug] [  nRF52] - Read memory description from family DLL: "Flash" [0x00000000-0x00100000] 256 pages (256x4kB) static ID0
[2022-Jun-16 18:57:17] [debug] [  nRF52] - Read memory description from family DLL: "Code RAM" [0x00800000-0x00840000] 22 pages (16x4kB,6x32kB) static ID8388608
[2022-Jun-16 18:57:17] [debug] [  nRF52] - Read memory description from family DLL: "FICR" [0x10000000-0x10001000] 1 pages (1x4kB) static ID268435456
[2022-Jun-16 18:57:17] [debug] [  nRF52] - Read memory description from family DLL: "UICR" [0x10001000-0x10002000] 1 pages (1x4kB) static ID268439552
[2022-Jun-16 18:57:17] [debug] [  nRF52] - Read memory description from family DLL: "XIP" [0x12000000-0x1a000000] 0 pages (0x0kB) static ID301989888
[2022-Jun-16 18:57:17] [debug] [  nRF52] - Read memory description from family DLL: "RAM" [0x20000000-0x20040000] 22 pages (16x4kB,6x32kB) static ID536870912
[2022-Jun-16 18:57:17] [trace] [  JLink] - JLINK_Unlock()  
[2022-Jun-16 18:57:17] [trace] [ Worker] - Command read_memory_descriptors executed for 18 milliseconds with result 0
[2022-Jun-16 18:57:17] [debug] [  nRF52] - read_memory_descriptors
[2022-Jun-16 18:57:17] [debug] [SeggerBackend] - is_connected_to_emu
[2022-Jun-16 18:57:17] [trace] [  JLink] - JLINK_IsOpen()  
[2022-Jun-16 18:57:17] [trace] [  JLink] - - 0.003ms returns 0x01  
[2022-Jun-16 18:57:17] [trace] [  JLink] - JLINK_Lock()  
[2022-Jun-16 18:57:17] [debug] [  nRF52] - Just_read_memory_descriptors
[2022-Jun-16 18:57:17] [debug] [  nRF52] - Just_readback_status
[2022-Jun-16 18:57:17] [debug] [  nRF52] - Just_is_ctrl_ap_available
[2022-Jun-16 18:57:17] [debug] [SeggerBackend] - read_access_port_register
[2022-Jun-16 18:57:17] [debug] [SeggerBackend] - ---just_read_access_port_register
[2022-Jun-16 18:57:17] [debug] [SeggerBackend] - ---just_is_debug_region_powered
[2022-Jun-16 18:57:17] [debug] [SeggerBackend] - ---just_read_debug_port_register
[2022-Jun-16 18:57:17] [debug] [SeggerBackend] - ---just_select_debug_port_register
[2022-Jun-16 18:57:17] [debug] [SeggerBackend] - Select AP 255, DP Bank 0, AP Bank 255
[2022-Jun-16 18:57:17] [trace] [  JLink] - JLINK_CORESIGHT_WriteAPDPReg(DP reg 0x02, 0x00000000)  
[2022-Jun-16 18:57:17] [trace] [  JLink] - - 0.600ms returns 0  
[2022-Jun-16 18:57:17] [trace] [  JLink] - JLINK_CORESIGHT_ReadAPDPReg(DP reg 0x01)  
[2022-Jun-16 18:57:17] [trace] [  JLink] - Value=0xF0000040
[2022-Jun-16 18:57:17] [trace] [  JLink] - - 0.319ms returns 0  
[2022-Jun-16 18:57:17] [debug] [SeggerBackend] - ---just_select_access_port_register
[2022-Jun-16 18:57:17] [debug] [SeggerBackend] - Select AP 1, DP Bank 0, AP Bank 15
[2022-Jun-16 18:57:17] [trace] [  JLink] - JLINK_CORESIGHT_WriteAPDPReg(DP reg 0x02, 0x010000F0)  
[2022-Jun-16 18:57:17] [trace] [  JLink] - - 0.693ms returns 0  
[2022-Jun-16 18:57:17] [trace] [  JLink] - JLINK_CORESIGHT_ReadAPDPReg(AP reg 0x03)  
[2022-Jun-16 18:57:17] [trace] [  JLink] - Value=0x02880000
[2022-Jun-16 18:57:17] [trace] [  JLink] - - 0.671ms returns 0  
[2022-Jun-16 18:57:17] [debug] [SeggerBackend] - read_access_port_register
[2022-Jun-16 18:57:17] [debug] [SeggerBackend] - ---just_read_access_port_register
[2022-Jun-16 18:57:17] [debug] [SeggerBackend] - ---just_select_access_port_register
[2022-Jun-16 18:57:17] [trace] [  JLink] - JLINK_CORESIGHT_ReadAPDPReg(AP reg 0x03)  
[2022-Jun-16 18:57:17] [trace] [ Client] - Command read_memory_descriptors executed for 16 milliseconds with result 0
[2022-Jun-16 18:57:17] [debug] [ Client] - read_page_sizes
[2022-Jun-16 18:57:17] [trace] [ Client] - Command read_page_sizes executed for 0 milliseconds with result 0
[2022-Jun-16 18:57:17] [debug] [ Client] - read_page_sizes
[2022-Jun-16 18:57:17] [trace] [ Client] - Command read_page_sizes executed for 0 milliseconds with result 0
[2022-Jun-16 18:57:17] [debug] [ Client] - read_page_sizes
[2022-Jun-16 18:57:17] [trace] [ Client] - Command read_page_sizes executed for 0 milliseconds with result 0
[2022-Jun-16 18:57:17] [debug] [ Client] - read_page_sizes
[2022-Jun-16 18:57:17] [trace] [ Client] - Command read_page_sizes executed for 0 milliseconds with result 0
[2022-Jun-16 18:57:17] [debug] [ Client] - read_page_sizes
[2022-Jun-16 18:57:17] [trace] [ Client] - Command read_page_sizes executed for 0 milliseconds with result 0
[2022-Jun-16 18:57:17] [debug] [ Client] - read_page_sizes
[2022-Jun-16 18:57:17] [trace] [ Client] - Command read_page_sizes executed for 0 milliseconds with result 0
[2022-Jun-16 18:57:17] [debug] [ Client] - read_page_sizes
[2022-Jun-16 18:57:17] [trace] [ Client] - Command read_page_sizes executed for 0 milliseconds with result 0
[2022-Jun-16 18:57:17] [debug] [ Client] - read_page_sizes
[2022-Jun-16 18:57:17] [trace] [ Client] - Command read_page_sizes executed for 0 milliseconds with result 0
[2022-Jun-16 18:57:17] [debug] [ Client] - read_page_sizes
[2022-Jun-16 18:57:17] [trace] [ Client] - Command read_page_sizes executed for 0 milliseconds with result 0
[2022-Jun-16 18:57:17] [debug] [ Client] - read_page_sizes
[2022-Jun-16 18:57:17] [trace] [ Client] - Command read_page_sizes executed for 0 milliseconds with result 0
[2022-Jun-16 18:57:17] [debug] [ Client] - read_page_sizes
[2022-Jun-16 18:57:17] [trace] [ Client] - Command read_page_sizes executed for 0 milliseconds with result 0
[2022-Jun-16 18:57:17] [debug] [ Client] - read_page_sizes
[2022-Jun-16 18:57:17] [trace] [ Client] - Command read_page_sizes executed for 0 milliseconds with result 0
[2022-Jun-16 18:57:17] [debug] [ Client] - qspi_configure
[2022-Jun-16 18:57:17] [trace] [  JLink] - Value=0x02880000
[2022-Jun-16 18:57:17] [trace] [  JLink] - - 0.643ms returns 0  
[2022-Jun-16 18:57:17] [debug] [SeggerBackend] - read_access_port_register
[2022-Jun-16 18:57:17] [debug] [SeggerBackend] - ---just_read_access_port_register
[2022-Jun-16 18:57:17] [debug] [SeggerBackend] - ---just_select_access_port_register
[2022-Jun-16 18:57:17] [trace] [  JLink] - JLINK_CORESIGHT_ReadAPDPReg(AP reg 0x03)  
[2022-Jun-16 18:57:17] [trace] [  JLink] - Value=0x02880000
[2022-Jun-16 18:57:17] [trace] [  JLink] - - 0.670ms returns 0  
[2022-Jun-16 18:57:17] [debug] [SeggerBackend] - read_access_port_register
[2022-Jun-16 18:57:17] [debug] [SeggerBackend] - ---just_read_access_port_register
[2022-Jun-16 18:57:17] [debug] [SeggerBackend] - ---just_select_access_port_register
[2022-Jun-16 18:57:17] [trace] [  JLink] - JLINK_CORESIGHT_ReadAPDPReg(AP reg 0x03)  
[2022-Jun-16 18:57:17] [trace] [  JLink] - Value=0x02880000
[2022-Jun-16 18:57:17] [trace] [  JLink] - - 0.620ms returns 0  
[2022-Jun-16 18:57:17] [debug] [SeggerBackend] - read_access_port_register
[2022-Jun-16 18:57:17] [debug] [SeggerBackend] - ---just_read_access_port_register
[2022-Jun-16 18:57:17] [debug] [SeggerBackend] - ---just_select_access_port_register
[2022-Jun-16 18:57:17] [debug] [SeggerBackend] - Select AP 1, DP Bank 0, AP Bank 0
[2022-Jun-16 18:57:17] [trace] [  JLink] - JLINK_CORESIGHT_WriteAPDPReg(DP reg 0x02, 0x01000000)  
[2022-Jun-16 18:57:17] [trace] [  JLink] - - 0.644ms returns 0  
[2022-Jun-16 18:57:17] [trace] [  JLink] - JLINK_CORESIGHT_ReadAPDPReg(AP reg 0x03)  
[2022-Jun-16 18:57:17] [trace] [  JLink] - Value=0x00000001
[2022-Jun-16 18:57:17] [trace] [  JLink] - - 0.701ms returns 0  
[2022-Jun-16 18:57:17] [debug] [SeggerBackend] - read_access_port_register
[2022-Jun-16 18:57:17] [debug] [SeggerBackend] - ---just_read_access_port_register
[2022-Jun-16 18:57:17] [debug] [SeggerBackend] - ---just_select_access_port_register
[2022-Jun-16 18:57:17] [trace] [  JLink] - JLINK_CORESIGHT_ReadAPDPReg(AP reg 0x03)  
[2022-Jun-16 18:57:17] [trace] [  JLink] - Value=0x00000001
[2022-Jun-16 18:57:17] [trace] [  JLink] - - 0.646ms returns 0  
[2022-Jun-16 18:57:17] [debug] [SeggerBackend] - read_access_port_register
[2022-Jun-16 18:57:17] [debug] [SeggerBackend] - ---just_read_access_port_register
[2022-Jun-16 18:57:17] [debug] [SeggerBackend] - ---just_select_access_port_register
[2022-Jun-16 18:57:17] [trace] [  JLink] - JLINK_CORESIGHT_ReadAPDPReg(AP reg 0x03)  
[2022-Jun-16 18:57:17] [trace] [  JLink] - Value=0x00000001
[2022-Jun-16 18:57:17] [trace] [  JLink] - - 0.671ms returns 0  
[2022-Jun-16 18:57:17] [debug] [SeggerBackend] - read_access_port_register
[2022-Jun-16 18:57:17] [debug] [SeggerBackend] - ---just_read_access_port_register
[2022-Jun-16 18:57:17] [debug] [SeggerBackend] - ---just_select_access_port_register
[2022-Jun-16 18:57:17] [trace] [  JLink] - JLINK_CORESIGHT_ReadAPDPReg(AP reg 0x03)  
[2022-Jun-16 18:57:17] [trace] [  JLink] - Value=0x00000001
[2022-Jun-16 18:57:17] [trace] [  JLink] - - 0.686ms returns 0  
[2022-Jun-16 18:57:17] [ info] [  nRF52] - Protection status read as NONE
[2022-Jun-16 18:57:17] [debug] [  nRF52] - update_device_memory_list
[2022-Jun-16 18:57:17] [debug] [  nRF52] - Just_read_device_version
[2022-Jun-16 18:57:17] [debug] [  nRF52] - Just_readback_status
[2022-Jun-16 18:57:17] [debug] [  nRF52] - Just_is_ctrl_ap_available
[2022-Jun-16 18:57:17] [debug] [SeggerBackend] - read_access_port_register
[2022-Jun-16 18:57:17] [debug] [SeggerBackend] - ---just_read_access_port_register
[2022-Jun-16 18:57:17] [debug] [SeggerBackend] - ---just_select_access_port_register
[2022-Jun-16 18:57:17] [debug] [SeggerBackend] - Select AP 1, DP Bank 0, AP Bank 15
[2022-Jun-16 18:57:17] [trace] [  JLink] - JLINK_CORESIGHT_WriteAPDPReg(DP reg 0x02, 0x010000F0)  
[2022-Jun-16 18:57:17] [trace] [  JLink] - - 0.568ms returns 0  
[2022-Jun-16 18:57:17] [trace] [  JLink] - JLINK_CORESIGHT_ReadAPDPReg(AP reg 0x03)  
[2022-Jun-16 18:57:17] [trace] [  JLink] - Value=0x02880000
[2022-Jun-16 18:57:17] [trace] [  JLink] - - 0.717ms returns 0  
[2022-Jun-16 18:57:17] [debug] [SeggerBackend] - read_access_port_register
[2022-Jun-16 18:57:17] [debug] [SeggerBackend] - ---just_read_access_port_register
[2022-Jun-16 18:57:17] [debug] [SeggerBackend] - ---just_select_access_port_register
[2022-Jun-16 18:57:17] [trace] [  JLink] - JLINK_CORESIGHT_ReadAPDPReg(AP reg 0x03)  
[2022-Jun-16 18:57:17] [trace] [  JLink] - Value=0x02880000
[2022-Jun-16 18:57:17] [trace] [  JLink] - - 0.677ms returns 0  
[2022-Jun-16 18:57:17] [debug] [SeggerBackend] - read_access_port_register
[2022-Jun-16 18:57:17] [debug] [SeggerBackend] - ---just_read_access_port_register
[2022-Jun-16 18:57:17] [debug] [SeggerBackend] - ---just_select_access_port_register
[2022-Jun-16 18:57:17] [trace] [  JLink] - JLINK_CORESIGHT_ReadAPDPReg(AP reg 0x03)  
[2022-Jun-16 18:57:17] [trace] [  JLink] - Value=0x02880000
[2022-Jun-16 18:57:17] [trace] [  JLink] - - 0.636ms returns 0  
[2022-Jun-16 18:57:17] [debug] [SeggerBackend] - read_access_port_register
[2022-Jun-16 18:57:17] [debug] [SeggerBackend] - ---just_read_access_port_register
[2022-Jun-16 18:57:17] [debug] [SeggerBackend] - ---just_select_access_port_register
[2022-Jun-16 18:57:17] [trace] [  JLink] - JLINK_CORESIGHT_ReadAPDPReg(AP reg 0x03)  
[2022-Jun-16 18:57:17] [trace] [  JLink] - Value=0x02880000
[2022-Jun-16 18:57:17] [trace] [  JLink] - - 0.667ms returns 0  
[2022-Jun-16 18:57:17] [debug] [SeggerBackend] - read_access_port_register
[2022-Jun-16 18:57:17] [debug] [SeggerBackend] - ---just_read_access_port_register
[2022-Jun-16 18:57:17] [debug] [SeggerBackend] - ---just_select_access_port_register
[2022-Jun-16 18:57:17] [debug] [SeggerBackend] - Select AP 1, DP Bank 0, AP Bank 0
[2022-Jun-16 18:57:17] [trace] [  JLink] - JLINK_CORESIGHT_WriteAPDPReg(DP reg 0x02, 0x01000000)  
[2022-Jun-16 18:57:17] [trace] [  JLink] - - 0.558ms returns 0  
[2022-Jun-16 18:57:17] [trace] [  JLink] - JLINK_CORESIGHT_ReadAPDPReg(AP reg 0x03)  
[2022-Jun-16 18:57:17] [trace] [  JLink] - Value=0x00000001
[2022-Jun-16 18:57:17] [trace] [  JLink] - - 0.639ms returns 0  
[2022-Jun-16 18:57:17] [debug] [SeggerBackend] - read_access_port_register
[2022-Jun-16 18:57:17] [debug] [SeggerBackend] - ---just_read_access_port_register
[2022-Jun-16 18:57:17] [debug] [SeggerBackend] - ---just_select_access_port_register
[2022-Jun-16 18:57:17] [trace] [  JLink] - JLINK_CORESIGHT_ReadAPDPReg(AP reg 0x03)  
[2022-Jun-16 18:57:17] [trace] [  JLink] - Value=0x00000001
[2022-Jun-16 18:57:17] [trace] [  JLink] - - 0.588ms returns 0  
[2022-Jun-16 18:57:17] [debug] [SeggerBackend] - read_access_port_register
[2022-Jun-16 18:57:17] [debug] [SeggerBackend] - ---just_read_access_port_register
[2022-Jun-16 18:57:17] [debug] [SeggerBackend] - ---just_select_access_port_register
[2022-Jun-16 18:57:17] [trace] [  JLink] - JLINK_CORESIGHT_ReadAPDPReg(AP reg 0x03)  
[2022-Jun-16 18:57:17] [trace] [  JLink] - Value=0x00000001
[2022-Jun-16 18:57:17] [trace] [  JLink] - - 0.651ms returns 0  
[2022-Jun-16 18:57:17] [debug] [SeggerBackend] - read_access_port_register
[2022-Jun-16 18:57:17] [debug] [SeggerBackend] - ---just_read_access_port_register
[2022-Jun-16 18:57:17] [debug] [SeggerBackend] - ---just_select_access_port_register
[2022-Jun-16 18:57:17] [trace] [  JLink] - JLINK_CORESIGHT_ReadAPDPReg(AP reg 0x03)  
